Freq.	V(vout)
1.00000000000000e-02	7.55351371134234e-04,3.59496680110177e-02
1.00695555005672e-02	7.65891404366094e-04,3.61995050944307e-02
1.01395947979003e-02	7.76578450730049e-04,3.64510754667704e-02
1.02101212570719e-02	7.87414559074376e-04,3.67043910902727e-02
1.02811382665607e-02	7.98401806753334e-04,3.69594640084106e-02
1.03526492384138e-02	8.09542300022398e-04,3.72163063464186e-02
1.04246576084112e-02	8.20838174438963e-04,3.74749303118186e-02
1.04971668362307e-02	8.32291595268588e-04,3.77353481949495e-02
1.05701804056138e-02	8.43904757896831e-04,3.79975723694996e-02
1.06437018245336e-02	8.55679888246662e-04,3.82616152930415e-02
1.07177346253629e-02	8.67619243201763e-04,3.85274895075696e-02
1.07922823650443e-02	8.79725111035548e-04,3.87952076400409e-02
1.08673486252606e-02	8.91999811846106e-04,3.90647824029182e-02
1.09429370126074e-02	9.04445697997139e-04,3.93362265947163e-02
1.10190511587661e-02	9.17065154564976e-04,3.96095531005506e-02
1.10956947206785e-02	9.29860599791660e-04,3.98847748926891e-02
1.11728713807222e-02	9.42834485544410e-04,4.01619050311067e-02
1.12505848468881e-02	9.55989297781160e-04,4.04409566640424e-02
1.13288388529580e-02	9.69327557022744e-04,4.07219430285592e-02
1.14076371586843e-02	9.82851818831429e-04,4.10048774511070e-02
1.14869835499704e-02	9.96564674295995e-04,4.12897733480880e-02
1.15668818390529e-02	1.01046875052355e-03,4.15766442264252e-02
1.16473358646846e-02	1.02456671113810e-03,4.18655036841330e-02
1.17283494923188e-02	1.03886125678583e-03,4.21563654108913e-02
1.18099266142953e-02	1.05335512564752e-03,4.24492431886220e-02
1.18920711500272e-02	1.06805109395779e-03,4.27441508920682e-02
1.19747870461893e-02	1.08295197653159e-03,4.30411024893760e-02
1.20580782769076e-02	1.09806062729784e-03,4.33401120426794e-02
1.21419488439505e-02	1.11337993984045e-03,4.36411937086876e-02
1.22264027769207e-02	1.12891284794667e-03,4.39443617392754e-02
1.23114441334492e-02	1.14466232616301e-03,4.42496304820753e-02
1.23970769993899e-02	1.16063139035872e-03,4.45570143810737e-02
1.24833054890162e-02	1.17682309829704e-03,4.48665279772087e-02
1.25701337452183e-02	1.19324055021428e-03,4.51781859089709e-02
1.26575659397028e-02	1.20988688940667e-03,4.54920029130068e-02
1.27456062731927e-02	1.22676530282545e-03,4.58079938247251e-02
1.28342589756291e-02	1.24387902167995e-03,4.61261735789050e-02
1.29235283063750e-02	1.26123132204896e-03,4.64465572103080e-02
1.30134185544194e-02	1.27882552550044e-03,4.67691598542911e-02
1.31039340385837e-02	1.29666499971971e-03,4.70939967474240e-02
1.31950791077290e-02	1.31475315914624e-03,4.74210832281073e-02
1.32868581409652e-02	1.33309346561906e-03,4.77504347371948e-02
1.33792755478612e-02	1.35168942903105e-03,4.80820668186168e-02
1.34723357686569e-02	1.37054460799213e-03,4.84159951200071e-02
1.35660432744768e-02	1.38966261050147e-03,4.87522353933319e-02
1.36604025675440e-02	1.40904709462892e-03,4.90908034955211e-02
1.37554181813975e-02	1.42870176920564e-03,4.94317153891023e-02
1.38510946811093e-02	1.44863039452427e-03,4.97749871428371e-02
1.39474366635041e-02	1.46883678304850e-03,5.01206349323595e-02
1.40444487573800e-02	1.48932480013237e-03,5.04686750408172e-02
1.41421356237310e-02	1.51009836474937e-03,5.08191238595150e-02
1.42405019559708e-02	1.53116145023142e-03,5.11719978885599e-02
1.43395524801583e-02	1.55251808501793e-03,5.15273137375096e-02
1.44392919552250e-02	1.57417235341498e-03,5.18850881260222e-02
1.45397251732032e-02	1.59612839636497e-03,5.22453378845089e-02
1.46408569594563e-02	1.61839041222650e-03,5.26080799547879e-02
1.47426921729111e-02	1.64096265756505e-03,5.29733313907419e-02
1.48452357062906e-02	1.66384944795428e-03,5.33411093589763e-02
1.49484924863495e-02	1.68705515878820e-03,5.37114311394800e-02
1.50524674741107e-02	1.71058422610440e-03,5.40843141262884e-02
1.51571656651041e-02	1.73444114741844e-03,5.44597758281484e-02
1.52625920896057e-02	1.75863048256950e-03,5.48378338691848e-02
1.53687518128802e-02	1.78315685457751e-03,5.52185059895694e-02
1.54756499354240e-02	1.80802495051187e-03,5.56018100461912e-02
1.55832915932101e-02	1.83323952237203e-03,5.59877640133293e-02
1.56916819579351e-02	1.85880538797978e-03,5.63763859833265e-02
1.58008262372676e-02	1.88472743188381e-03,5.67676941672655e-02
1.59107296750985e-02	1.91101060627631e-03,5.71617068956465e-02
1.60213975517925e-02	1.93765993192217e-03,5.75584426190664e-02
1.61328351844426e-02	1.96468049910048e-03,5.79579199088993e-02
1.62450479271248e-02	1.99207746855894e-03,5.83601574579791e-02
1.63580411711557e-02	2.01985607248104e-03,5.87651740812834e-02
1.64718203453516e-02	2.04802161546629e-03,5.91729887166181e-02
1.65863909162889e-02	2.07657947552368e-03,5.95836204253046e-02
1.67017583885675e-02	2.10553510507852e-03,5.99970883928671e-02
1.68179283050744e-02	2.13489403199279e-03,6.04134119297220e-02
1.69349062472506e-02	2.16466186059933e-03,6.08326104718678e-02
1.70526978353592e-02	2.19484427274979e-03,6.12547035815765e-02
1.71713087287552e-02	2.22544702887677e-03,6.16797109480862e-02
1.72907446261574e-02	2.25647596907016e-03,6.21076523882939e-02
1.74110112659226e-02	2.28793701416803e-03,6.25385478474499e-02
1.75321144263208e-02	2.31983616686204e-03,6.29724173998530e-02
1.76540599258132e-02	2.35217951281773e-03,6.34092812495455e-02
1.77768536233315e-02	2.38497322180980e-03,6.38491597310105e-02
1.79005014185596e-02	2.41822354887270e-03,6.42920733098678e-02
1.80250092522167e-02	2.45193683546644e-03,6.47380425835720e-02
1.81503831063433e-02	2.48611951065813e-03,6.51870882821100e-02
1.82766290045881e-02	2.52077809231928e-03,6.56392312686994e-02
1.84037530124976e-02	2.55591918833914e-03,6.60944925404864e-02
1.85317612378075e-02	2.59154949785410e-03,6.65528932292443e-02
1.86606598307363e-02	2.62767581249368e-03,6.70144546020723e-02
1.87904549842804e-02	2.66430501764302e-03,6.74791980620938e-02
1.89211529345121e-02	2.70144409372225e-03,6.79471451491542e-02
1.90527599608789e-02	2.73910011748279e-03,6.84183175405196e-02
1.91852823865054e-02	2.77728026332110e-03,6.88927370515738e-02
1.93187265784971e-02	2.81599180460966e-03,6.93704256365154e-02
1.94530989482459e-02	2.85524211504590e-03,6.98514053890544e-02
1.95884059517387e-02	2.89503867001878e-03,7.03356985431083e-02
1.97246540898673e-02	2.93538904799365e-03,7.08233274734962e-02
1.98618499087409e-02	2.97630093191559e-03,7.13143146966337e-02
2.00000000000002e-02	3.01778211063098e-03,7.18086828712248e-02
2.01391110011345e-02	3.05984048032832e-03,7.23064547989542e-02
2.02791895958007e-02	3.10248404599780e-03,7.28076534251775e-02
2.04202425141440e-02	3.14572092291026e-03,7.33123018396095e-02
2.05622765331215e-02	3.18955933811583e-03,7.38204232770123e-02
2.07052984768277e-02	3.23400763196206e-03,7.43320411178796e-02
2.08493152168226e-02	3.27907425963232e-03,7.48471788891213e-02
2.09943336724615e-02	3.32476779270436e-03,7.53658602647441e-02
2.11403608112278e-02	3.37109692072939e-03,7.58881090665313e-02
2.12874036490674e-02	3.41807045283190e-03,7.64139492647191e-02
2.14354692507260e-02	3.46569731933068e-03,7.69434049786716e-02
2.15845647300887e-02	3.51398657338084e-03,7.74765004775518e-02
2.17346972505213e-02	3.56294739263759e-03,7.80132601809908e-02
2.18858740252150e-02	3.61258908094178e-03,7.85537086597534e-02
2.20381023175324e-02	3.66292107002741e-03,7.90978706364005e-02
2.21913894413571e-02	3.71395292125162e-03,7.96457709859482e-02
2.23457427614446e-02	3.76569432734715e-03,8.01974347365237e-02
2.25011696937764e-02	3.81815511419783e-03,8.07528870700168e-02
2.26576777059162e-02	3.87134524263701e-03,8.13121533227273e-02
2.28152743173687e-02	3.92527481026966e-03,8.18752589860091e-02
2.29739670999409e-02	3.97995405331808e-03,8.24422297069097e-02
2.31337636781060e-02	4.03539334849151e-03,8.30130912888040e-02
2.32946717293693e-02	4.09160321488018e-03,8.35878696920249e-02
2.34566989846378e-02	4.14859431587393e-03,8.41665910344878e-02
2.36198532285908e-02	4.20637746110545e-03,8.47492815923102e-02
2.37841423000546e-02	4.26496360841901e-03,8.53359678004259e-02
2.39495740923788e-02	4.32436386586449e-03,8.59266762531933e-02
2.41161565538154e-02	4.38458949371710e-03,8.65214337049982e-02
2.42838976879012e-02	4.44565190652324e-03,8.71202670708494e-02
2.44528055538416e-02	4.50756267517273e-03,8.77232034269691e-02
2.46228882668986e-02	4.57033352899764e-03,8.83302700113757e-02
2.47941539987800e-02	4.63397635789816e-03,8.89414942244601e-02
2.49666109780325e-02	4.69850321449574e-03,8.95569036295542e-02
2.51402674904368e-02	4.76392631631381e-03,9.01765259534928e-02
2.53151318794058e-02	4.83025804798649e-03,9.08003890871669e-02
2.54912125463855e-02	4.89751096349537e-03,9.14285210860686e-02
2.56685179512583e-02	4.96569778843519e-03,9.20609501708292e-02
2.58470566127501e-02	5.03483142230798e-03,9.26977047277470e-02
2.60268371088389e-02	5.10492494084681e-03,9.33388133093064e-02
2.62078680771675e-02	5.17599159836881e-03,9.39843046346886e-02
2.63901582154582e-02	5.24804483015828e-03,9.46342075902714e-02
2.65737162819305e-02	5.32109825487984e-03,9.52885512301201e-02
2.67585510957225e-02	5.39516567702223e-03,9.59473647764672e-02
2.69446715373141e-02	5.47026108937304e-03,9.66106776201824e-02
2.71320865489537e-02	5.54639867552463e-03,9.72785193212303e-02
2.73208051350882e-02	5.62359281241155e-03,9.79509196091181e-02
2.75108363627952e-02	5.70185807288011e-03,9.86279083833308e-02
2.77021893622188e-02	5.78120922828999e-03,9.93095157137542e-02
2.78948733270084e-02	5.86166125114870e-03,9.99957718410859e-02
2.80888975147602e-02	5.94322931777882e-03,1.00686707177233e-01
2.82842712474622e-02	6.02592881101874e-03,1.01382352305696e-01
2.84810039119417e-02	6.10977532295708e-03,1.02082737981940e-01
2.86791049603169e-02	6.19478465770108e-03,1.02787895133754e-01
2.88785839104502e-02	6.28097283417959e-03,1.03497854861587e-01
2.90794503464065e-02	6.36835608898061e-03,1.04212648438879e-01
2.92817139189128e-02	6.45695087922421e-03,1.04932307312375e-01
2.94853843458224e-02	6.54677388547094e-03,1.05656863102416e-01
2.96904714125813e-02	6.63784201466598e-03,1.06386347603220e-01
2.98969849726991e-02	6.73017240311976e-03,1.07120792783144e-01
3.01049349482217e-02	6.82378241952510e-03,1.07860230784932e-01
3.03143313302083e-02	6.91868966801144e-03,1.08604693925940e-01
3.05251841792115e-02	7.01491199123641e-03,1.09354214698343e-01
3.07375036257606e-02	7.11246747351525e-03,1.10108825769328e-01
3.09512998708482e-02	7.21137444398830e-03,1.10868559981266e-01
3.11665831864204e-02	7.31165147982712e-03,1.11633450351858e-01
3.13833639158704e-02	7.41331740947943e-03,1.12403530074269e-01
3.16016524745355e-02	7.51639131595352e-03,1.13178832517236e-01
3.18214593501971e-02	7.62089254014214e-03,1.13959391225157e-01
3.20427951035853e-02	7.72684068418666e-03,1.14745239918151e-01
3.22656703688854e-02	7.83425561488152e-03,1.15536412492110e-01
3.24900958542498e-02	7.94315746711978e-03,1.16332943018707e-01
3.27160823423116e-02	8.05356664737957e-03,1.17134865745401e-01
3.29436406907033e-02	8.16550383725258e-03,1.17942215095401e-01
3.31727818325781e-02	8.27898999701412e-03,1.18755025667613e-01
3.34035167771352e-02	8.39404636923602e-03,1.19573332236558e-01
3.36358566101490e-02	8.51069448244206e-03,1.20397169752266e-01
3.38698124945015e-02	8.62895615480666e-03,1.21226573340142e-01
3.41053956707187e-02	8.74885349789718e-03,1.22061578300796e-01
3.43426174575106e-02	8.87040892046019e-03,1.22902220109860e-01
3.45814892523151e-02	8.99364513225206e-03,1.23748534417761e-01
3.48220225318454e-02	9.11858514791436e-03,1.24600557049470e-01
3.50642288526419e-02	9.24525229089432e-03,1.25458324004220e-01
3.53081198516267e-02	9.37367019741095e-03,1.26321871455190e-01
3.55537072466633e-02	9.50386282046690e-03,1.27191235749160e-01
3.58010028371194e-02	9.63585443390672e-03,1.28066453406127e-01
3.60500185044337e-02	9.76966963652188e-03,1.28947561118892e-01
3.63007662126869e-02	9.90533335620269e-03,1.29834595752612e-01
3.65532580091765e-02	1.00428708541377e-02,1.30727594344308e-01
3.68075060249955e-02	1.01823077290611e-02,1.31626594102347e-01
3.70635224756153e-02	1.03236699215480e-02,1.32531632405882e-01
3.73213196614728e-02	1.04669837183588e-02,1.33442746804246e-01
3.75809099685610e-02	1.06122757568318e-02,1.34359975016323e-01
3.78423058690244e-02	1.07595730293256e-02,1.35283354929859e-01
3.81055199217580e-02	1.09089028877114e-02,1.36212924600748e-01
3.83705647730111e-02	1.10602930479145e-02,1.37148722252266e-01
3.86374531569944e-02	1.12137715945073e-02,1.38090786274263e-01
3.89061978964920e-02	1.13693669853520e-02,1.39039155222317e-01
3.91768119034776e-02	1.15271080562952e-02,1.39993867816829e-01
3.94493081797349e-02	1.16870240259133e-02,1.40954962942088e-01
3.97236998174820e-02	1.18491445003106e-02,1.41922479645275e-01
4.00000000000006e-02	1.20134994779683e-02,1.42896457135425e-01
4.02782220022693e-02	1.21801193546472e-02,1.43876934782337e-01
4.05583791916017e-02	1.23490349283421e-02,1.44863952115434e-01
4.08404850282883e-02	1.25202774042902e-02,1.45857548822570e-01
4.11245530662433e-02	1.26938784000322e-02,1.46857764748784e-01
4.14105969536557e-02	1.28698699505278e-02,1.47864639895000e-01
4.16986304336455e-02	1.30482845133245e-02,1.48878214416670e-01
4.19886673449233e-02	1.32291549737812e-02,1.49898528622359e-01
4.22807216224558e-02	1.34125146503463e-02,1.50925622972278e-01
4.25748072981350e-02	1.35983972998907e-02,1.51959538076747e-01
4.28709385014524e-02	1.37868371230956e-02,1.53000314694609e-01
4.31691294601777e-02	1.39778687698961e-02,1.54047993731570e-01
4.34693945010430e-02	1.41715273449805e-02,1.55102616238484e-01
4.37717480504302e-02	1.43678484133449e-02,1.56164223409570e-01
4.40762046350651e-02	1.45668680059043e-02,1.57232856580562e-01
4.43827788827145e-02	1.47686226251602e-02,1.58308557226792e-01
4.46914855228895e-02	1.49731492509246e-02,1.59391366961202e-01
4.50023393875531e-02	1.51804853461000e-02,1.60481327532292e-01
4.53153554118326e-02	1.53906688625175e-02,1.61578480821983e-01
4.56305486347377e-02	1.56037382468313e-02,1.62682868843420e-01
4.59479341998821e-02	1.58197324464702e-02,1.63794533738687e-01
4.62675273562122e-02	1.60386909156470e-02,1.64913517776458e-01
4.65893434587390e-02	1.62606536214250e-02,1.66039863349558e-01
4.69133979692759e-02	1.64856610498420e-02,1.67173612972448e-01
4.72397064571820e-02	1.67137542120927e-02,1.68314809278632e-01
4.75682846001096e-02	1.69449746507679e-02,1.69463495017974e-01
4.78991481847579e-02	1.71793644461518e-02,1.70619713053931e-01
4.82323131076312e-02	1.74169662225779e-02,1.71783506360704e-01
4.85677953758027e-02	1.76578231548417e-02,1.72954918020294e-01
4.89056111076836e-02	1.79019789746717e-02,1.74133991219467e-01
4.92457765337975e-02	1.81494779772587e-02,1.75320769246636e-01
4.95883079975603e-02	1.84003650278424e-02,1.76515295488632e-01
4.99332219560653e-02	1.86546855683556e-02,1.77717613427398e-01
5.02805349808740e-02	1.89124856241267e-02,1.78927766636566e-01
5.06302637588120e-02	1.91738118106395e-02,1.80145798777947e-01
5.09824250927713e-02	1.94387113403503e-02,1.81371753597915e-01
5.13370359025170e-02	1.97072320295625e-02,1.82605674923682e-01
5.16941132255006e-02	1.99794223053581e-02,1.83847606659473e-01
5.20536742176782e-02	2.02553312125863e-02,1.85097592782591e-01
5.24157361543354e-02	2.05350084209090e-02,1.86355677339368e-01
5.27803164309167e-02	2.08185042319019e-02,1.87621904441006e-01
5.31474325638614e-02	2.11058695862130e-02,1.88896318259302e-01
5.35171021914454e-02	2.13971560707753e-02,1.90178963022261e-01
5.38893430746286e-02	2.16924159260769e-02,1.91469883009579e-01
5.42641730979078e-02	2.19917020534840e-02,1.92769122548014e-01
5.46416102701768e-02	2.22950680226204e-02,1.94076726006628e-01
5.50216727255907e-02	2.26025680788003e-02,1.95392737791903e-01
5.54043787244380e-02	2.29142571505149e-02,1.96717202342732e-01
5.57897466540172e-02	2.32301908569719e-02,1.98050164125273e-01
5.61777950295209e-02	2.35504255156888e-02,1.99391667627673e-01
5.65685424949248e-02	2.38750181501365e-02,2.00741757354658e-01
5.69620078238839e-02	2.42040264974357e-02,2.02100477821975e-01
5.73582099206341e-02	2.45375090161033e-02,2.03467873550704e-01
5.77571678209009e-02	2.48755248938489e-02,2.04843989061422e-01
5.81589006928135e-02	2.52181340554205e-02,2.06228868868215e-01
5.85634278378261e-02	2.55653971704987e-02,2.07622557472549e-01
5.89707686916451e-02	2.59173756616383e-02,2.09025099356988e-01
5.93809428251631e-02	2.62741317122564e-02,2.10436538978750e-01
5.97939699453986e-02	2.66357282746665e-02,2.11856920763114e-01
6.02098698964438e-02	2.70022290781568e-02,2.13286289096664e-01
6.06286626604171e-02	2.73736986371124e-02,2.14724688320369e-01
6.10503683584235e-02	2.77502022591798e-02,2.16172162722499e-01
6.14750072515216e-02	2.81318060534731e-02,2.17628756531368e-01
6.19025997416968e-02	2.85185769388193e-02,2.19094513907915e-01
6.23331663728412e-02	2.89105826520434e-02,2.20569478938099e-01
6.27667278317413e-02	2.93078917562904e-02,2.22053695625120e-01
6.32033049490714e-02	2.97105736493834e-02,2.23547207881467e-01
6.36429187003947e-02	3.01186985722164e-02,2.25050059520770e-01
6.40855902071710e-02	3.05323376171800e-02,2.26562294249475e-01
6.45313407377713e-02	3.09515627366180e-02,2.28083955658322e-01
6.49801917085001e-02	3.13764467513150e-02,2.29615087213634e-01
6.54321646846237e-02	3.18070633590105e-02,2.31155732248411e-01
6.58872813814071e-02	3.22434871429406e-02,2.32705933953219e-01
6.63455636651566e-02	3.26857935804026e-02,2.34265735366878e-01
6.68070335542709e-02	3.31340590513430e-02,2.35835179366951e-01
6.72717132202985e-02	3.35883608469652e-02,2.37414308660011e-01
6.77396249890035e-02	3.40487771783558e-02,2.39003165771705e-01
6.82107913414379e-02	3.45153871851263e-02,2.40601793036598e-01
6.86852349150217e-02	3.49882709440691e-02,2.42210232587798e-01
6.91629785046306e-02	3.54675094778240e-02,2.43828526346359e-01
6.96440450636913e-02	3.59531847635545e-02,2.45456716010454e-01
7.01284577052842e-02	3.64453797416296e-02,2.47094843044323e-01
7.06162397032538e-02	3.69441783243093e-02,2.48742948666982e-01
7.11074144933271e-02	3.74496654044320e-02,2.50401073840703e-01
7.16020056742393e-02	3.79619268640984e-02,2.52069259259242e-01
7.21000370088679e-02	3.84810495833515e-02,2.53747545335835e-01
7.26015324253744e-02	3.90071214488489e-02,2.55435972190937e-01
7.31065160183536e-02	3.95402313625232e-02,2.57134579639716e-01
7.36150120499915e-02	4.00804692502288e-02,2.58843407179284e-01
7.41270449512312e-02	4.06279260703711e-02,2.60562493975684e-01
7.46426393229462e-02	4.11826938225140e-02,2.62291878850593e-01
7.51618199371225e-02	4.17448655559633e-02,2.64031600267783e-01
7.56846117380493e-02	4.23145353783216e-02,2.65781696319291e-01
7.62110398435166e-02	4.28917984640108e-02,2.67542204711334e-01
7.67411295460228e-02	4.34767510627591e-02,2.69313162749931e-01
7.72749063139893e-02	4.40694905080469e-02,2.71094607326253e-01
7.78123957929845e-02	4.46701152255096e-02,2.72886574901692e-01
7.83536238069558e-02	4.52787247412904e-02,2.74689101492629e-01
7.88986163594704e-02	4.58954196903414e-02,2.76502222654923e-01
7.94473996349646e-02	4.65203018246663e-02,2.78325973468097e-01
8.00000000000017e-02	4.71534740215009e-02,2.80160388519226e-01
8.05564440045393e-02	4.77950402914264e-02,2.82005501886525e-01
8.11167583832041e-02	4.84451057864110e-02,2.83861347122624e-01
8.16809700565772e-02	4.91037768077736e-02,2.85727957237540e-01
8.22491061324871e-02	4.97711608140654e-02,2.87605364681328e-01
8.28211939073120e-02	5.04473664288636e-02,2.89493601326417e-01
8.33972608672915e-02	5.11325034484714e-02,2.91392698449626e-01
8.39773346898472e-02	5.18266828495188e-02,2.93302686713857e-01
8.45614432449123e-02	5.25300167964580e-02,2.95223596149445e-01
8.51496145962707e-02	5.32426186489488e-02,2.97155456135199e-01
8.57418770029054e-02	5.39646029691251e-02,2.99098295379086e-01
8.63382589203561e-02	5.46960855287390e-02,3.01052141898588e-01
8.69387890020866e-02	5.54371833161734e-02,3.03017023000711e-01
8.75434961008612e-02	5.61880145433191e-02,3.04992965261650e-01
8.81524092701309e-02	5.69486986523073e-02,3.06979994506106e-01
8.87655577654296e-02	5.77193563220908e-02,3.08978135786243e-01
8.93829710457796e-02	5.85001094748684e-02,3.10987413360297e-01
